(1506785907.237366) can0 030#00004000000000
(1506785907.237602) can0 231#0000000000000000
(1506785907.241389) can0 230#18842408C9770000
(1506785907.246033) can0 161#838010016D00B700
(1506785907.247166) can0 052#3D4000
(1506785907.247340) can0 310#409143000000
(1506785907.249837) can0 032#0000000000000000
(1506785907.250436) can0 051#9000000000C60000
(1506785907.250761) can0 052#900000
(1506785907.252478) can0 521#000000000408
(1506785907.252654) can0 526#050000000110
(1506785907.252900) can0 528#070001000000
(1506785907.254969) can0 522#01000004049E
(1506785907.257345) can0 052#3D2600
(1506785907.257385) can0 310#26000000
(1506785907.257635) can0 052#3D3000
(1506785907.257786) can0 310#30000000
(1506785907.258454) can0 030#00004600000000
(1506785907.258680) can0 231#0000000000000000
(1506785907.269466) can0 052#3D2200
(1506785907.269634) can0 310#22000000
(1506785907.270858) can0 032#0000000000000000
(1506785907.271813) can0 052#900000
(1506785907.279577) can0 030#00004000000000
(1506785907.279738) can0 231#0000000000000000
(1506785907.279907) can0 052#3D2000
(1506785907.280103) can0 310#20000000
(1506785907.291106) can0 052#3D5F00
(1506785907.291239) can0 310#5F010000
(1506785907.291424) can0 052#3D3000
(1506785907.291578) can0 310#30000000
(1506785907.291865) can0 032#0000000000000000
(1506785907.294065) can0 052#900000
(1506785907.300572) can0 030#00004400000000
(1506785907.300792) can0 231#0000000000000000
(1506785907.301532) can0 052#3D4800
(1506785907.301624) can0 310#48C60100
(1506785907.301875) can0 521#0001000003FF
(1506785907.302098) can0 526#05010000010D
(1506785907.302330) can0 528#070101000000
(1506785907.304461) can0 522#01010004049D
(1506785907.317562) can0 052#3D3000
(1506785907.317633) can0 310#30000000
(1506785907.317725) can0 052#900000
(1506785907.321651) can0 030#00003E00000000
(1506785907.321850) can0 231#0000000000000000
(1506785907.323817) can0 052#3D4900
(1506785907.323955) can0 310#497A2C00
(1506785907.333985) can0 032#0000000000000000
(1506785907.335029) can0 052#900000
(1506785907.335377) can0 052#3D4A00
(1506785907.335514) can0 310#4ACE3E00
(1506785907.342687) can0 030#00004300000000
(1506785907.342901) can0 230#18842440DA770000
(1506785907.343156) can0 231#0000000000000000
(1506785907.346560) can0 052#3D3000
(1506785907.346666) can0 310#30000000
(1506785907.346730) can0 052#3D4B00
(1506785907.346913) can0 310#4BA22E00
(1506785907.351044) can0 161#838010016D00B700
(1506785907.351396) can0 521#0002000003FB
(1506785907.351614) can0 526#05020000010F
(1506785907.351853) can0 051#9000000000C30000
(1506785907.352066) can0 528#070201000000
(1506785907.353985) can0 522#01020004049B
(1506785907.354974) can0 032#0000000000000000
(1506785907.356697) can0 052#900000
(1506785907.357587) can0 052#3D4000
(1506785907.357780) can0 310#409143000000
(1506785907.398932) can0 030#00003F00000000
(1506785907.398959) can0 231#0000000000000000
(1506785907.399015) can0 032#0000000000000000
(1506785907.399505) can0 052#900000
(1506785907.400865) can0 521#000300000404
(1506785907.401027) can0 526#05030000010F
(1506785907.401291) can0 528#070301000000
(1506785907.402654) can0 052#3D5F00
(1506785907.402818) can0 310#5F000000
(1506785907.402976) can0 052#3D3000
(1506785907.403177) can0 310#30000000
(1506785907.403494) can0 522#0103000404AC
(1506785907.405926) can0 030#00004000000000
(1506785907.406093) can0 231#0000000000000000
(1506785907.413039) can0 052#3D4800
(1506785907.413133) can0 310#48C60100
(1506785907.418092) can0 032#0000000000000000
(1506785907.420955) can0 052#900000
(1506785907.423367) can0 052#3D3000
(1506785907.423521) can0 310#30000000
(1506785907.426937) can0 030#00003F00000000
(1506785907.427172) can0 231#0000000000000000
(1506785907.434477) can0 052#3D4900
(1506785907.434565) can0 310#49792C00
(1506785907.439135) can0 032#0000000000000000
(1506785907.442479) can0 052#900000
(1506785907.444009) can0 230#18842404D4770000
(1506785907.445759) can0 052#3D4A00
(1506785907.445912) can0 310#4AD63E00
